bash -c "cat /home/z/IdeaProjects/PlugRunProj/text/1/2/div.sample | /home/z/.IdeaIC2017.1/system/plugins-sandbox/plugins/jetbrains-plugin-sample/ngspice/linux/usr/local/bin/ngspice -s"

Circuit: head

Doing analysis at TEMP = 27.000000 and TNOM = 27.000000

Title: head
Date: Sun Oct  8 13:39:02  2017
Plotname: Transient Analysis
Flags: real
No. Variables: 4
No. Points: 0
Variables:
No. of Data Columns : 4

Initial Transient Solution
--------------------------

Node                                   Voltage
----                                   -------
1                                            0
2                                            0
v1#branch                                    0

	0	time	time
	1	v(1)	voltage
	2	v(2)	voltage
	3	i(v1)	current
Values:
0		0.000000000000000e+00
	0.000000000000000e+00
	0.000000000000000e+00
	0.000000000000000e+00
1		1.000000000000000e-09
	5.000000000000000e+00
	2.475247524752475e-02
	-2.487623762376238e-03
2		2.000000000000000e-09
	5.000000000000000e+00
	4.925987648269776e-02
	-2.475370061758651e-03
3		4.000000000000000e-09
	5.000000000000000e+00
	9.778938387907997e-02
	-2.451105308060460e-03
4		8.000000000000000e-09
	5.000000000000000e+00
	1.919937217661749e-01
	-2.404003139116912e-03
5		1.600000000000000e-08
	5.000000000000000e+00
	3.695326662456999e-01
	-2.315233666877150e-03
6		3.200000000000000e-08
	5.000000000000000e+00
	6.851574564315221e-01
	-2.157421271784239e-03
7		6.400000000000000e-08
	5.000000000000000e+00
	1.185803675346964e+00
	-1.907098162326518e-03
8		1.000000000000000e-07
	5.000000000000000e+00
	1.586744926936025e+00
	-1.706627536531987e-03
9		1.064000000000000e-07
	5.000000000000000e+00
	1.641677562909798e+00
	-1.679161218545101e-03
10		1.192000000000000e-07
	5.000000000000000e+00
	1.744934397446964e+00
	-1.627532801276518e-03
11		1.448000000000000e-07
	5.000000000000000e+00
	1.916296803700135e+00
	-1.541851598149932e-03
12		1.960000000000000e-07
	5.000000000000000e+00
	2.154239507924284e+00
	-1.422880246037858e-03
13		2.960000000000000e-07
	5.000000000000000e+00
	2.384746502641429e+00
	-1.307626748679285e-03
14		3.960000000000000e-07
	5.000000000000000e+00
	2.461582167547143e+00
	-1.269208916226428e-03
15		4.960000000000000e-07
	5.000000000000000e+00
	2.487194055849048e+00
	-1.256402972075476e-03
16		5.960000000000000e-07
	5.000000000000000e+00
	2.495731351949683e+00
	-1.252134324025159e-03
17		6.960000000000000e-07
	5.000000000000000e+00
	2.498577117316561e+00
	-1.250711441341720e-03
18		7.960000000000000e-07
	5.000000000000000e+00
	2.499525705772187e+00
	-1.250237147113907e-03
19		8.960000000000000e-07
	5.000000000000000e+00
	2.499841901924062e+00
	-1.250079049037969e-03
20		9.959999999999999e-07
	5.000000000000000e+00
	2.499947300641353e+00
	-1.250026349679323e-03
21		1.096000000000000e-06
	5.000000000000000e+00
	2.499982433547118e+00
	-1.250008783226441e-03
22		1.196000000000000e-06
	5.000000000000000e+00
	2.499994144515706e+00
	-1.250002927742147e-03
23		1.296000000000000e-06
	5.000000000000000e+00
	2.499998048171902e+00
	-1.250000975914049e-03
24		1.395999999999999e-06
	5.000000000000000e+00
	2.499999349390634e+00
	-1.250000325304683e-03
25		1.495999999999999e-06
	5.000000000000000e+00
	2.499999783130211e+00
	-1.250000108434895e-03
26		1.595999999999999e-06
	5.000000000000000e+00
	2.499999927710070e+00
	-1.250000036144965e-03
27		1.695999999999999e-06
	5.000000000000000e+00
	2.499999975903356e+00
	-1.250000012048322e-03
28		1.795999999999999e-06
	5.000000000000000e+00
	2.499999991967786e+00
	-1.250000004016107e-03
29		1.895999999999999e-06
	5.000000000000000e+00
	2.499999997322596e+00
	-1.250000001338702e-03
30		1.995999999999999e-06
	5.000000000000000e+00
	2.499999999107532e+00
	-1.250000000446234e-03
31		2.095999999999999e-06
	5.000000000000000e+00
	2.499999999702511e+00
	-1.250000000148745e-03
32		2.195999999999999e-06
	5.000000000000000e+00
	2.499999999900837e+00
	-1.250000000049581e-03
33		2.295999999999998e-06
	5.000000000000000e+00
	2.499999999966946e+00
	-1.250000000016527e-03
34		2.395999999999998e-06
	5.000000000000000e+00
	2.499999999988981e+00
	-1.250000000005510e-03
35		2.495999999999998e-06
	5.000000000000000e+00
	2.499999999996327e+00
	-1.250000000001837e-03
36		2.595999999999998e-06
	5.000000000000000e+00
	2.499999999998776e+00
	-1.250000000000612e-03
37		2.695999999999998e-06
	5.000000000000000e+00
	2.499999999999592e+00
	-1.250000000000204e-03
38		2.795999999999998e-06
	5.000000000000000e+00
	2.499999999999865e+00
	-1.250000000000068e-03
39		2.895999999999998e-06
	5.000000000000000e+00
	2.499999999999955e+00
	-1.250000000000022e-03
40		2.995999999999998e-06
	5.000000000000000e+00
	2.499999999999985e+00
	-1.250000000000008e-03
41		3.095999999999998e-06
	5.000000000000000e+00
	2.499999999999995e+00
	-1.250000000000002e-03
42		3.195999999999997e-06
	5.000000000000000e+00
	2.499999999999998e+00
	-1.250000000000001e-03
43		3.295999999999997e-06
	5.000000000000000e+00
	2.499999999999999e+00
	-1.250000000000000e-03
44		3.395999999999997e-06
	5.000000000000000e+00
	2.499999999999999e+00
	-1.250000000000000e-03
45		3.495999999999997e-06
	5.000000000000000e+00
	2.499999999999999e+00
	-1.250000000000000e-03
46		3.595999999999997e-06
	5.000000000000000e+00
	2.499999999999999e+00
	-1.250000000000000e-03
47		3.695999999999997e-06
	5.000000000000000e+00
	2.499999999999999e+00
	-1.250000000000000e-03
48		3.795999999999997e-06
	5.000000000000000e+00
	2.499999999999999e+00
	-1.250000000000000e-03
49		3.895999999999997e-06
	5.000000000000000e+00
	2.499999999999999e+00
	-1.250000000000000e-03
50		3.995999999999997e-06
	5.000000000000000e+00
	2.499999999999999e+00
	-1.250000000000000e-03
51		4.095999999999997e-06
	5.000000000000000e+00
	2.499999999999999e+00
	-1.250000000000000e-03
52		4.195999999999997e-06
	5.000000000000000e+00
	2.499999999999999e+00
	-1.250000000000000e-03
53		4.295999999999997e-06
	5.000000000000000e+00
	2.499999999999999e+00
	-1.250000000000000e-03
54		4.395999999999997e-06
	5.000000000000000e+00
	2.499999999999999e+00
	-1.250000000000000e-03
55		4.495999999999996e-06
	5.000000000000000e+00
	2.499999999999999e+00
	-1.250000000000000e-03
56		4.595999999999996e-06
	5.000000000000000e+00
	2.499999999999999e+00
	-1.250000000000000e-03
57		4.695999999999996e-06
	5.000000000000000e+00
	2.499999999999999e+00
	-1.250000000000000e-03
58		4.795999999999996e-06
	5.000000000000000e+00
	2.499999999999999e+00
	-1.250000000000000e-03
59		4.895999999999996e-06
	5.000000000000000e+00
	2.499999999999999e+00
	-1.250000000000000e-03
60		4.995999999999996e-06
	5.000000000000000e+00
	2.499999999999999e+00
	-1.250000000000000e-03
61		5.095999999999996e-06
	5.000000000000000e+00
	2.499999999999999e+00
	-1.250000000000000e-03
62		5.195999999999996e-06
	5.000000000000000e+00
	2.499999999999999e+00
	-1.250000000000000e-03
63		5.295999999999996e-06
	5.000000000000000e+00
	2.499999999999999e+00
	-1.250000000000000e-03
64		5.395999999999995e-06
	5.000000000000000e+00
	2.499999999999999e+00
	-1.250000000000000e-03
65		5.495999999999995e-06
	5.000000000000000e+00
	2.499999999999999e+00
	-1.250000000000000e-03
66		5.595999999999995e-06
	5.000000000000000e+00
	2.499999999999999e+00
	-1.250000000000000e-03
67		5.695999999999995e-06
	5.000000000000000e+00
	2.499999999999999e+00
	-1.250000000000000e-03
68		5.795999999999995e-06
	5.000000000000000e+00
	2.499999999999999e+00
	-1.250000000000000e-03
69		5.895999999999995e-06
	5.000000000000000e+00
	2.499999999999999e+00
	-1.250000000000000e-03
70		5.995999999999995e-06
	5.000000000000000e+00
	2.499999999999999e+00
	-1.250000000000000e-03
71		6.095999999999995e-06
	5.000000000000000e+00
	2.499999999999999e+00
	-1.250000000000000e-03
72		6.195999999999995e-06
	5.000000000000000e+00
	2.499999999999999e+00
	-1.250000000000000e-03
73		6.295999999999994e-06
	5.000000000000000e+00
	2.499999999999999e+00
	-1.250000000000000e-03
74		6.395999999999994e-06
	5.000000000000000e+00
	2.499999999999999e+00
	-1.250000000000000e-03
75		6.495999999999994e-06
	5.000000000000000e+00
	2.499999999999999e+00
	-1.250000000000000e-03
76		6.595999999999994e-06
	5.000000000000000e+00
	2.499999999999999e+00
	-1.250000000000000e-03
77		6.695999999999994e-06
	5.000000000000000e+00
	2.499999999999999e+00
	-1.250000000000000e-03
78		6.795999999999994e-06
	5.000000000000000e+00
	2.499999999999999e+00
	-1.250000000000000e-03
79		6.895999999999994e-06
	5.000000000000000e+00
	2.499999999999999e+00
	-1.250000000000000e-03
80		6.995999999999994e-06
	5.000000000000000e+00
	2.499999999999999e+00
	-1.250000000000000e-03
81		7.095999999999994e-06
	5.000000000000000e+00
	2.499999999999999e+00
	-1.250000000000000e-03
82		7.195999999999993e-06
	5.000000000000000e+00
	2.499999999999999e+00
	-1.250000000000000e-03
83		7.295999999999993e-06
	5.000000000000000e+00
	2.499999999999999e+00
	-1.250000000000000e-03
84		7.395999999999993e-06
	5.000000000000000e+00
	2.499999999999999e+00
	-1.250000000000000e-03
85		7.495999999999993e-06
	5.000000000000000e+00
	2.499999999999999e+00
	-1.250000000000000e-03
86		7.595999999999993e-06
	5.000000000000000e+00
	2.499999999999999e+00
	-1.250000000000000e-03
87		7.695999999999994e-06
	5.000000000000000e+00
	2.499999999999999e+00
	-1.250000000000000e-03
88		7.795999999999994e-06
	5.000000000000000e+00
	2.499999999999999e+00
	-1.250000000000000e-03
89		7.895999999999995e-06
	5.000000000000000e+00
	2.499999999999999e+00
	-1.250000000000000e-03
90		7.995999999999996e-06
	5.000000000000000e+00
	2.499999999999999e+00
	-1.250000000000000e-03
91		8.095999999999997e-06
	5.000000000000000e+00
	2.499999999999999e+00
	-1.250000000000000e-03
92		8.195999999999997e-06
	5.000000000000000e+00
	2.499999999999999e+00
	-1.250000000000000e-03
93		8.295999999999998e-06
	5.000000000000000e+00
	2.499999999999999e+00
	-1.250000000000000e-03
94		8.395999999999999e-06
	5.000000000000000e+00
	2.499999999999999e+00
	-1.250000000000000e-03
95		8.496000000000000e-06
	5.000000000000000e+00
	2.499999999999999e+00
	-1.250000000000000e-03
96		8.596000000000000e-06
	5.000000000000000e+00
	2.499999999999999e+00
	-1.250000000000000e-03
97		8.696000000000001e-06
	5.000000000000000e+00
	2.499999999999999e+00
	-1.250000000000000e-03
98		8.796000000000002e-06
	5.000000000000000e+00
	2.499999999999999e+00
	-1.250000000000000e-03
99		8.896000000000003e-06
	5.000000000000000e+00
	2.499999999999999e+00
	-1.250000000000000e-03
100		8.996000000000003e-06
	5.000000000000000e+00
	2.499999999999999e+00
	-1.250000000000000e-03
101		9.096000000000004e-06
	5.000000000000000e+00
	2.499999999999999e+00
	-1.250000000000000e-03
102		9.196000000000005e-06
	5.000000000000000e+00
	2.499999999999999e+00
	-1.250000000000000e-03
103		9.296000000000006e-06
	5.000000000000000e+00
	2.499999999999999e+00
	-1.250000000000000e-03
104		9.396000000000006e-06
	5.000000000000000e+00
	2.499999999999999e+00
	-1.250000000000000e-03
105		9.496000000000007e-06
	5.000000000000000e+00
	2.499999999999999e+00
	-1.250000000000000e-03
106		9.596000000000008e-06
	5.000000000000000e+00
	2.499999999999999e+00
	-1.250000000000000e-03
107		9.696000000000008e-06
	5.000000000000000e+00
	2.499999999999999e+00
	-1.250000000000000e-03
108		9.796000000000009e-06
	5.000000000000000e+00
	2.499999999999999e+00
	-1.250000000000000e-03
109		9.896000000000010e-06
	5.000000000000000e+00
	2.499999999999999e+00
	-1.250000000000000e-03
110		9.996000000000011e-06
	5.000000000000000e+00
	2.499999999999999e+00
	-1.250000000000000e-03
111		1.009600000000001e-05
	5.000000000000000e+00
	2.499999999999999e+00
	-1.250000000000000e-03
112		1.019600000000001e-05
	5.000000000000000e+00
	2.499999999999999e+00
	-1.250000000000000e-03
113		1.029600000000001e-05
	5.000000000000000e+00
	2.499999999999999e+00
	-1.250000000000000e-03
114		1.039600000000001e-05
	5.000000000000000e+00
	2.499999999999999e+00
	-1.250000000000000e-03
115		1.049600000000001e-05
	5.000000000000000e+00
	2.499999999999999e+00
	-1.250000000000000e-03
116		1.059600000000002e-05
	5.000000000000000e+00
	2.499999999999999e+00
	-1.250000000000000e-03
117		1.069600000000002e-05
	5.000000000000000e+00
	2.499999999999999e+00
	-1.250000000000000e-03
118		1.079600000000002e-05
	5.000000000000000e+00
	2.499999999999999e+00
	-1.250000000000000e-03
119		1.089600000000002e-05
	5.000000000000000e+00
	2.499999999999999e+00
	-1.250000000000000e-03
120		1.099600000000002e-05
	5.000000000000000e+00
	2.499999999999999e+00
	-1.250000000000000e-03
121		1.109600000000002e-05
	5.000000000000000e+00
	2.499999999999999e+00
	-1.250000000000000e-03
122		1.119600000000002e-05
	5.000000000000000e+00
	2.499999999999999e+00
	-1.250000000000000e-03
123		1.129600000000002e-05
	5.000000000000000e+00
	2.499999999999999e+00
	-1.250000000000000e-03
124		1.139600000000002e-05
	5.000000000000000e+00
	2.499999999999999e+00
	-1.250000000000000e-03
125		1.149600000000002e-05
	5.000000000000000e+00
	2.499999999999999e+00
	-1.250000000000000e-03
126		1.159600000000002e-05
	5.000000000000000e+00
	2.499999999999999e+00
	-1.250000000000000e-03
127		1.169600000000002e-05
	5.000000000000000e+00
	2.499999999999999e+00
	-1.250000000000000e-03
128		1.179600000000002e-05
	5.000000000000000e+00
	2.499999999999999e+00
	-1.250000000000000e-03
129		1.189600000000002e-05
	5.000000000000000e+00
	2.499999999999999e+00
	-1.250000000000000e-03
130		1.199600000000003e-05
	5.000000000000000e+00
	2.499999999999999e+00
	-1.250000000000000e-03
131		1.209600000000003e-05
	5.000000000000000e+00
	2.499999999999999e+00
	-1.250000000000000e-03
132		1.219600000000003e-05
	5.000000000000000e+00
	2.499999999999999e+00
	-1.250000000000000e-03
133		1.229600000000003e-05
	5.000000000000000e+00
	2.499999999999999e+00
	-1.250000000000000e-03
134		1.239600000000003e-05
	5.000000000000000e+00
	2.499999999999999e+00
	-1.250000000000000e-03
135		1.249600000000003e-05
	5.000000000000000e+00
	2.499999999999999e+00
	-1.250000000000000e-03
136		1.259600000000003e-05
	5.000000000000000e+00
	2.499999999999999e+00
	-1.250000000000000e-03
137		1.269600000000003e-05
	5.000000000000000e+00
	2.499999999999999e+00
	-1.250000000000000e-03
138		1.279600000000003e-05
	5.000000000000000e+00
	2.499999999999999e+00
	-1.250000000000000e-03
139		1.289600000000003e-05
	5.000000000000000e+00
	2.499999999999999e+00
	-1.250000000000000e-03
140		1.299600000000003e-05
	5.000000000000000e+00
	2.499999999999999e+00
	-1.250000000000000e-03
141		1.309600000000003e-05
	5.000000000000000e+00
	2.499999999999999e+00
	-1.250000000000000e-03
142		1.319600000000003e-05
	5.000000000000000e+00
	2.499999999999999e+00
	-1.250000000000000e-03
143		1.329600000000003e-05
	5.000000000000000e+00
	2.499999999999999e+00
	-1.250000000000000e-03
144		1.339600000000004e-05
	5.000000000000000e+00
	2.499999999999999e+00
	-1.250000000000000e-03
145		1.349600000000004e-05
	5.000000000000000e+00
	2.499999999999999e+00
	-1.250000000000000e-03
146		1.359600000000004e-05
	5.000000000000000e+00
	2.499999999999999e+00
	-1.250000000000000e-03
147		1.369600000000004e-05
	5.000000000000000e+00
	2.499999999999999e+00
	-1.250000000000000e-03
148		1.379600000000004e-05
	5.000000000000000e+00
	2.499999999999999e+00
	-1.250000000000000e-03
149		1.389600000000004e-05
	5.000000000000000e+00
	2.499999999999999e+00
	-1.250000000000000e-03
150		1.399600000000004e-05
	5.000000000000000e+00
	2.499999999999999e+00
	-1.250000000000000e-03
151		1.409600000000004e-05
	5.000000000000000e+00
	2.499999999999999e+00
	-1.250000000000000e-03
152		1.419600000000004e-05
	5.000000000000000e+00
	2.499999999999999e+00
	-1.250000000000000e-03
153		1.429600000000004e-05
	5.000000000000000e+00
	2.499999999999999e+00
	-1.250000000000000e-03
154		1.439600000000004e-05
	5.000000000000000e+00
	2.499999999999999e+00
	-1.250000000000000e-03
155		1.449600000000004e-05
	5.000000000000000e+00
	2.499999999999999e+00
	-1.250000000000000e-03
156		1.459600000000004e-05
	5.000000000000000e+00
	2.499999999999999e+00
	-1.250000000000000e-03
157		1.469600000000005e-05
	5.000000000000000e+00
	2.499999999999999e+00
	-1.250000000000000e-03
158		1.479600000000005e-05
	5.000000000000000e+00
	2.499999999999999e+00
	-1.250000000000000e-03
159		1.489600000000005e-05
	5.000000000000000e+00
	2.499999999999999e+00
	-1.250000000000000e-03
160		1.499600000000005e-05
	5.000000000000000e+00
	2.499999999999999e+00
	-1.250000000000000e-03
161		1.509600000000005e-05
	5.000000000000000e+00
	2.499999999999999e+00
	-1.250000000000000e-03
162		1.519600000000005e-05
	5.000000000000000e+00
	2.499999999999999e+00
	-1.250000000000000e-03
163		1.529600000000005e-05
	5.000000000000000e+00
	2.499999999999999e+00
	-1.250000000000000e-03
164		1.539600000000005e-05
	5.000000000000000e+00
	2.499999999999999e+00
	-1.250000000000000e-03
165		1.549600000000005e-05
	5.000000000000000e+00
	2.499999999999999e+00
	-1.250000000000000e-03
166		1.559600000000005e-05
	5.000000000000000e+00
	2.499999999999999e+00
	-1.250000000000000e-03
167		1.569600000000004e-05
	5.000000000000000e+00
	2.499999999999999e+00
	-1.250000000000000e-03
168		1.579600000000004e-05
	5.000000000000000e+00
	2.499999999999999e+00
	-1.250000000000000e-03
169		1.589600000000004e-05
	5.000000000000000e+00
	2.499999999999999e+00
	-1.250000000000000e-03
170		1.599600000000004e-05
	5.000000000000000e+00
	2.499999999999999e+00
	-1.250000000000000e-03
171		1.609600000000004e-05
	5.000000000000000e+00
	2.499999999999999e+00
	-1.250000000000000e-03
172		1.619600000000004e-05
	5.000000000000000e+00
	2.499999999999999e+00
	-1.250000000000000e-03
173		1.629600000000004e-05
	5.000000000000000e+00
	2.499999999999999e+00
	-1.250000000000000e-03
174		1.639600000000004e-05
	5.000000000000000e+00
	2.499999999999999e+00
	-1.250000000000000e-03
175		1.649600000000004e-05
	5.000000000000000e+00
	2.499999999999999e+00
	-1.250000000000000e-03
176		1.659600000000004e-05
	5.000000000000000e+00
	2.499999999999999e+00
	-1.250000000000000e-03
177		1.669600000000003e-05
	5.000000000000000e+00
	2.499999999999999e+00
	-1.250000000000000e-03
178		1.679600000000003e-05
	5.000000000000000e+00
	2.499999999999999e+00
	-1.250000000000000e-03
179		1.689600000000003e-05
	5.000000000000000e+00
	2.499999999999999e+00
	-1.250000000000000e-03
180		1.699600000000003e-05
	5.000000000000000e+00
	2.499999999999999e+00
	-1.250000000000000e-03
181		1.709600000000003e-05
	5.000000000000000e+00
	2.499999999999999e+00
	-1.250000000000000e-03
182		1.719600000000003e-05
	5.000000000000000e+00
	2.499999999999999e+00
	-1.250000000000000e-03
183		1.729600000000003e-05
	5.000000000000000e+00
	2.499999999999999e+00
	-1.250000000000000e-03
184		1.739600000000003e-05
	5.000000000000000e+00
	2.499999999999999e+00
	-1.250000000000000e-03
185		1.749600000000003e-05
	5.000000000000000e+00
	2.499999999999999e+00
	-1.250000000000000e-03
186		1.759600000000003e-05
	5.000000000000000e+00
	2.499999999999999e+00
	-1.250000000000000e-03
187		1.769600000000003e-05
	5.000000000000000e+00
	2.499999999999999e+00
	-1.250000000000000e-03
188		1.779600000000002e-05
	5.000000000000000e+00
	2.499999999999999e+00
	-1.250000000000000e-03
189		1.789600000000002e-05
	5.000000000000000e+00
	2.499999999999999e+00
	-1.250000000000000e-03
190		1.799600000000002e-05
	5.000000000000000e+00
	2.499999999999999e+00
	-1.250000000000000e-03
191		1.809600000000002e-05
	5.000000000000000e+00
	2.499999999999999e+00
	-1.250000000000000e-03
192		1.819600000000002e-05
	5.000000000000000e+00
	2.499999999999999e+00
	-1.250000000000000e-03
193		1.829600000000002e-05
	5.000000000000000e+00
	2.499999999999999e+00
	-1.250000000000000e-03
194		1.839600000000002e-05
	5.000000000000000e+00
	2.499999999999999e+00
	-1.250000000000000e-03
195		1.849600000000002e-05
	5.000000000000000e+00
	2.499999999999999e+00
	-1.250000000000000e-03
196		1.859600000000002e-05
	5.000000000000000e+00
	2.499999999999999e+00
	-1.250000000000000e-03
197		1.869600000000002e-05
	5.000000000000000e+00
	2.499999999999999e+00
	-1.250000000000000e-03
198		1.879600000000001e-05
	5.000000000000000e+00
	2.499999999999999e+00
	-1.250000000000000e-03
199		1.889600000000001e-05
